time	V(in1/out1)	V(in2)	I(D1)
0.000000000000000e+00	0.000000e+00	0.000000e+00	0.000000e+00
7.812499952519758e-11	1.562500e-07	2.058223e-08	1.356678e-08
1.562499990503952e-10	3.125000e-07	6.852653e-08	2.439735e-08
3.124999981007903e-10	6.250000e-07	2.247703e-07	4.002297e-08
6.249999962015806e-10	1.250000e-06	6.749404e-07	5.750596e-08
1.249999992403161e-09	2.500000e-06	1.794662e-06	7.053383e-08
2.499999984806323e-09	5.000000e-06	4.244907e-06	7.550931e-08
4.553124997764362e-06	9.106250e-03	9.105427e-03	8.233925e-08
9.103749995543918e-06	1.820750e-02	1.820659e-02	9.140897e-08
1.365437499332347e-05	2.730875e-02	2.730772e-02	1.027185e-07
1.820499999110303e-05	3.641000e-02	3.640884e-02	1.162678e-07
2.275562498888259e-05	4.551125e-02	4.550993e-02	1.320568e-07
2.730624998666214e-05	5.461250e-02	5.461100e-02	1.500857e-07
3.185687498444169e-05	6.371375e-02	6.371205e-02	1.703544e-07
3.771624998444169e-05	7.543250e-02	7.543046e-02	2.041279e-07
4.357562498444170e-05	8.715125e-02	8.714879e-02	2.465220e-07
4.943499998444170e-05	9.887000e-02	9.886700e-02	2.997736e-07
5.529437498444171e-05	1.105888e-01	1.105851e-01	3.667008e-07
5.920062498444171e-05	1.184013e-01	1.183970e-01	4.206341e-07
6.310687498444171e-05	1.262137e-01	1.262089e-01	4.834751e-07
6.701312498444172e-05	1.340262e-01	1.340207e-01	5.567057e-07
7.091937498444172e-05	1.418387e-01	1.418323e-01	6.420545e-07
7.482562498444172e-05	1.496512e-01	1.496438e-01	7.415379e-07
7.873187498444173e-05	1.574637e-01	1.574552e-01	8.575075e-07
8.263812498444173e-05	1.652762e-01	1.652663e-01	9.927064e-07
8.654437498444174e-05	1.730887e-01	1.730773e-01	1.150334e-06
9.045062498444174e-05	1.809012e-01	1.808879e-01	1.334121e-06
9.435687498444174e-05	1.887137e-01	1.886983e-01	1.548419e-06
9.826312498444175e-05	1.965262e-01	1.965083e-01	1.798302e-06
1.021693749844417e-04	2.043387e-01	2.043179e-01	2.089688e-06
1.060756249844418e-04	2.121512e-01	2.121270e-01	2.429475e-06
1.080287499844418e-04	2.160575e-01	2.160313e-01	2.619983e-06
1.099818749844418e-04	2.199637e-01	2.199355e-01	2.825708e-06
1.119349999844418e-04	2.238700e-01	2.238395e-01	3.047865e-06
1.138881249844418e-04	2.277762e-01	2.277434e-01	3.287765e-06
1.158412499844418e-04	2.316825e-01	2.316470e-01	3.546826e-06
1.177943749844418e-04	2.355887e-01	2.355505e-01	3.826577e-06
1.197474999844418e-04	2.394950e-01	2.394537e-01	4.128668e-06
1.217006249844418e-04	2.434012e-01	2.433567e-01	4.454883e-06
1.236537499844418e-04	2.473075e-01	2.472594e-01	4.807145e-06
1.256068749844418e-04	2.512138e-01	2.511619e-01	5.187531e-06
1.275599999844418e-04	2.551200e-01	2.550640e-01	5.598283e-06
1.295131249844418e-04	2.590263e-01	2.589658e-01	6.041818e-06
1.314662499844418e-04	2.629325e-01	2.628673e-01	6.520750e-06
1.334193749844418e-04	2.668388e-01	2.667684e-01	7.037895e-06
1.353724999844418e-04	2.707450e-01	2.706690e-01	7.596293e-06
1.373256249844418e-04	2.746513e-01	2.745693e-01	8.199225e-06
1.392787499844418e-04	2.785575e-01	2.784690e-01	8.850230e-06
1.412318749844418e-04	2.824638e-01	2.823682e-01	9.553128e-06
1.431849999844418e-04	2.863700e-01	2.862669e-01	1.031204e-05
1.451381249844418e-04	2.902763e-01	2.901649e-01	1.113140e-05
1.470912499844418e-04	2.941825e-01	2.940623e-01	1.201601e-05
1.490443749844418e-04	2.980888e-01	2.979590e-01	1.297103e-05
1.509974999844418e-04	3.019950e-01	3.018550e-01	1.400203e-05
1.529506249844418e-04	3.059013e-01	3.057501e-01	1.511503e-05
1.549037499844418e-04	3.098075e-01	3.096443e-01	1.631649e-05
1.568568749844418e-04	3.137138e-01	3.135376e-01	1.761339e-05
1.588099999844418e-04	3.176200e-01	3.174299e-01	1.901325e-05
1.607631249844418e-04	3.215263e-01	3.213210e-01	2.052416e-05
1.627162499844418e-04	3.254325e-01	3.252110e-01	2.215485e-05
1.646693749844418e-04	3.293388e-01	3.290996e-01	2.391472e-05
1.666224999844418e-04	3.332450e-01	3.329869e-01	2.581387e-05
1.685756249844418e-04	3.371513e-01	3.368726e-01	2.786321e-05
1.705287499844418e-04	3.410575e-01	3.407568e-01	3.007445e-05
1.724818749844418e-04	3.449638e-01	3.446392e-01	3.246019e-05
1.744349999844418e-04	3.488700e-01	3.485197e-01	3.503399e-05
1.763881249844418e-04	3.527763e-01	3.523982e-01	3.781044e-05
1.783412499844418e-04	3.566825e-01	3.562744e-01	4.080520e-05
1.802943749844418e-04	3.605888e-01	3.601484e-01	4.403509e-05
1.822474999844418e-04	3.644950e-01	3.640198e-01	4.751818e-05
1.842006249844418e-04	3.684013e-01	3.678885e-01	5.127388e-05
1.861537499844418e-04	3.723075e-01	3.717543e-01	5.532299e-05
1.881068749844418e-04	3.762138e-01	3.756169e-01	5.968783e-05
1.900599999844418e-04	3.801200e-01	3.794761e-01	6.439231e-05
1.920131249844418e-04	3.840263e-01	3.833316e-01	6.946204e-05
1.939662499844418e-04	3.879325e-01	3.871832e-01	7.492444e-05
1.959193749844418e-04	3.918388e-01	3.910307e-01	8.080882e-05
1.978724999844418e-04	3.957450e-01	3.948735e-01	8.714652e-05
1.998256249844418e-04	3.996513e-01	3.987115e-01	9.397101e-05
2.017787499844418e-04	4.035575e-01	4.025443e-01	1.013180e-04
2.037318749844418e-04	4.074638e-01	4.063715e-01	1.092256e-04
2.056849999844418e-04	4.113700e-01	4.101927e-01	1.177342e-04
2.076381249844418e-04	4.152763e-01	4.140074e-01	1.268872e-04
2.095912499844418e-04	4.191825e-01	4.178152e-01	1.367302e-04
2.115443749844418e-04	4.230888e-01	4.216156e-01	1.473120e-04
2.134974999844418e-04	4.269950e-01	4.254082e-01	1.586841e-04
2.154506249844418e-04	4.309013e-01	4.291922e-01	1.709012e-04
2.174037499844418e-04	4.348075e-01	4.329673e-01	1.840210e-04
2.193568749844418e-04	4.387138e-01	4.367327e-01	1.981044e-04
2.213099999844418e-04	4.426200e-01	4.404878e-01	2.132156e-04
2.232631249844418e-04	4.465263e-01	4.442320e-01	2.294223e-04
2.252162499844418e-04	4.504325e-01	4.479645e-01	2.467952e-04
2.291224999844418e-04	4.582450e-01	4.553916e-01	2.853411e-04
2.330287499844419e-04	4.660575e-01	4.627626e-01	3.294885e-04
2.369349999844419e-04	4.738700e-01	4.700707e-01	3.799263e-04
2.408412499844419e-04	4.816825e-01	4.773086e-01	4.373931e-04
2.447474999844418e-04	4.894950e-01	4.844683e-01	5.026729e-04
2.486537499844418e-04	4.973075e-01	4.915416e-01	5.765870e-04
2.525599999844418e-04	5.051200e-01	4.985202e-01	6.599845e-04
2.564662499844418e-04	5.129325e-01	5.053952e-01	7.537301e-04
2.603724999844418e-04	5.207450e-01	5.121581e-01	8.586898e-04
2.642787499844419e-04	5.285575e-01	5.188004e-01	9.757153e-04
2.681849999844419e-04	5.363700e-01	5.253137e-01	1.105628e-03
2.720912499844419e-04	5.441825e-01	5.316905e-01	1.249200e-03
2.759974999844419e-04	5.519950e-01	5.379236e-01	1.407142e-03
2.799037499844419e-04	5.598075e-01	5.440066e-01	1.580086e-03
2.857631249844419e-04	5.715262e-01	5.528384e-01	1.868788e-03
2.916224999844419e-04	5.832450e-01	5.613066e-01	2.193843e-03
2.974818749844419e-04	5.949637e-01	5.694026e-01	2.556118e-03
3.033412499844419e-04	6.066825e-01	5.771231e-01	2.955940e-03
3.092006249844419e-04	6.184012e-01	5.844699e-01	3.393131e-03
3.167341071272990e-04	6.334682e-01	5.932909e-01	4.017729e-03
3.242675892701562e-04	6.485352e-01	6.016110e-01	4.692422e-03
3.318010714130134e-04	6.636021e-01	6.094300e-01	5.417210e-03
3.393345535558705e-04	6.786691e-01	6.167482e-01	6.192093e-03
3.468680356987277e-04	6.937361e-01	6.235654e-01	7.017070e-03
3.544015178415848e-04	7.088030e-01	6.298816e-01	7.892143e-03
3.619349999844419e-04	7.238700e-01	6.356969e-01	8.817311e-03
3.744908035558705e-04	7.489816e-01	6.444698e-01	1.045118e-02
3.870466071272991e-04	7.740932e-01	6.526152e-01	1.214781e-02
3.996024106987277e-04	7.992048e-01	6.601330e-01	1.390719e-02
4.121582142701563e-04	8.243164e-01	6.670232e-01	1.572933e-02
4.247140178415848e-04	8.494280e-01	6.732859e-01	1.761422e-02
4.372698214130135e-04	8.745396e-01	6.789210e-01	1.956187e-02
4.498256249844420e-04	8.996512e-01	6.839285e-01	2.157227e-02
5.000000000000000e-04	1.000000e+00	7.015144e-01	2.984856e-02
5.054408482142857e-04	9.891183e-01	7.010158e-01	2.881026e-02
5.108816964285714e-04	9.782366e-01	7.002257e-01	2.780110e-02
5.163225446428571e-04	9.673549e-01	6.991442e-01	2.682108e-02
5.217633928571429e-04	9.564732e-01	6.977713e-01	2.587020e-02
5.272042410714286e-04	9.455915e-01	6.961070e-01	2.494846e-02
5.326450892857143e-04	9.347098e-01	6.941513e-01	2.405586e-02
5.380859375000000e-04	9.238281e-01	6.919042e-01	2.319239e-02
5.511997767857144e-04	8.976004e-01	6.872385e-01	2.103619e-02
5.643136160714287e-04	8.713728e-01	6.819796e-01	1.893931e-02
5.774274553571430e-04	8.451451e-01	6.761274e-01	1.690176e-02
5.905412946428573e-04	8.189174e-01	6.696820e-01	1.492354e-02
6.036551339285715e-04	7.926897e-01	6.626433e-01	1.300465e-02
6.167689732142858e-04	7.664621e-01	6.550113e-01	1.114508e-02
6.298828125000001e-04	7.402344e-01	6.467860e-01	9.344835e-03
6.368582589285715e-04	7.262835e-01	6.419464e-01	8.433712e-03
6.438337053571430e-04	7.123326e-01	6.366869e-01	7.564574e-03
6.508091517857144e-04	6.983817e-01	6.310075e-01	6.737421e-03
6.577845982142858e-04	6.844308e-01	6.249083e-01	5.952254e-03
6.647600446428574e-04	6.704799e-01	6.183892e-01	5.209072e-03
6.717354910714288e-04	6.565290e-01	6.114503e-01	4.507875e-03
6.787109375000002e-04	6.425781e-01	6.040915e-01	3.848664e-03
6.845703125000002e-04	6.308594e-01	5.974022e-01	3.345724e-03
6.904296875000002e-04	6.191406e-01	5.903037e-01	2.883701e-03
6.962890625000002e-04	6.074219e-01	5.827827e-01	2.463924e-03
7.021484375000002e-04	5.957031e-01	5.748326e-01	2.087057e-03
7.060546875000002e-04	5.878906e-01	5.692945e-01	1.859612e-03
7.099609375000002e-04	5.800781e-01	5.635689e-01	1.650924e-03
7.138671875000002e-04	5.722656e-01	5.576602e-01	1.460544e-03
7.177734375000002e-04	5.644531e-01	5.515746e-01	1.287850e-03
7.216796875000002e-04	5.566406e-01	5.453200e-01	1.132062e-03
7.255859375000002e-04	5.488281e-01	5.389055e-01	9.922665e-04
7.294921875000002e-04	5.410156e-01	5.323411e-01	8.674472e-04
7.333984375000002e-04	5.332031e-01	5.256379e-01	7.565169e-04
7.373046875000002e-04	5.253906e-01	5.188071e-01	6.583509e-04
7.412109375000002e-04	5.175781e-01	5.118600e-01	5.718181e-04
7.451171875000002e-04	5.097656e-01	5.048075e-01	4.958070e-04
7.490234375000002e-04	5.019531e-01	4.976607e-01	4.292473e-04
7.529296875000002e-04	4.941406e-01	4.904294e-01	3.711259e-04
7.548828125000002e-04	4.902344e-01	4.867851e-01	3.449314e-04
7.568359375000002e-04	4.863281e-01	4.831232e-01	3.204976e-04
7.587890625000002e-04	4.824219e-01	4.794447e-01	2.977182e-04
7.607421875000002e-04	4.785156e-01	4.757507e-01	2.764915e-04
7.626953125000002e-04	4.746094e-01	4.720422e-01	2.567206e-04
7.646484375000002e-04	4.707031e-01	4.683200e-01	2.383134e-04
7.666015625000002e-04	4.667969e-01	4.645850e-01	2.211829e-04
7.685546875000002e-04	4.628906e-01	4.608381e-01	2.052462e-04
7.705078125000003e-04	4.589844e-01	4.570801e-01	1.904253e-04
7.724609375000003e-04	4.550781e-01	4.533117e-01	1.766465e-04
7.744140625000003e-04	4.511719e-01	4.495335e-01	1.638403e-04
7.763671875000003e-04	4.472656e-01	4.457462e-01	1.519415e-04
7.783203125000003e-04	4.433594e-01	4.419505e-01	1.408885e-04
7.802734375000003e-04	4.394531e-01	4.381469e-01	1.306237e-04
7.822265625000003e-04	4.355469e-01	4.343359e-01	1.210930e-04
7.841796875000003e-04	4.316406e-01	4.305182e-01	1.122459e-04
7.861328125000003e-04	4.277344e-01	4.266940e-01	1.040347e-04
7.880859375000003e-04	4.238281e-01	4.228640e-01	9.641522e-05
7.900390625000003e-04	4.199219e-01	4.190284e-01	8.934595e-05
7.919921875000003e-04	4.160156e-01	4.151877e-01	8.278818e-05
7.939453125000003e-04	4.121094e-01	4.113423e-01	7.670577e-05
7.958984375000003e-04	4.082031e-01	4.074925e-01	7.106501e-05
7.978515625000003e-04	4.042969e-01	4.036385e-01	6.583449e-05
7.998046875000003e-04	4.003906e-01	3.997808e-01	6.098492e-05
8.017578125000003e-04	3.964844e-01	3.959195e-01	5.648903e-05
8.037109375000003e-04	3.925781e-01	3.920549e-01	5.232144e-05
8.056640625000003e-04	3.886719e-01	3.881873e-01	4.845854e-05
8.076171875000003e-04	3.847656e-01	3.843168e-01	4.487836e-05
8.095703125000003e-04	3.808594e-01	3.804438e-01	4.156046e-05
8.115234375000003e-04	3.769531e-01	3.765683e-01	3.848585e-05
8.134765625000003e-04	3.730469e-01	3.726905e-01	3.563689e-05
8.154296875000003e-04	3.691406e-01	3.688107e-01	3.299719e-05
8.173828125000003e-04	3.652344e-01	3.649289e-01	3.055152e-05
8.193359375000003e-04	3.613281e-01	3.610453e-01	2.828574e-05
8.212890625000003e-04	3.574219e-01	3.571600e-01	2.618673e-05
8.232421875000003e-04	3.535156e-01	3.532732e-01	2.424230e-05
8.251953125000003e-04	3.496094e-01	3.493850e-01	2.244116e-05
8.271484375000003e-04	3.457031e-01	3.454954e-01	2.077280e-05
8.291015625000003e-04	3.417969e-01	3.416046e-01	1.922751e-05
8.310546875000003e-04	3.378906e-01	3.377126e-01	1.779624e-05
8.330078125000003e-04	3.339844e-01	3.338197e-01	1.647064e-05
8.349609375000003e-04	3.300781e-01	3.299257e-01	1.524295e-05
8.369140625000003e-04	3.261719e-01	3.260308e-01	1.410595e-05
8.388671875000003e-04	3.222656e-01	3.221351e-01	1.305299e-05
8.408203125000003e-04	3.183594e-01	3.182386e-01	1.207788e-05
8.427734375000003e-04	3.144531e-01	3.143414e-01	1.117488e-05
8.447265625000003e-04	3.105469e-01	3.104435e-01	1.033867e-05
8.466796875000003e-04	3.066406e-01	3.065450e-01	9.564338e-06
8.486328125000003e-04	3.027344e-01	3.026459e-01	8.847304e-06
8.505859375000003e-04	2.988281e-01	2.987463e-01	8.183346e-06
8.525390625000003e-04	2.949219e-01	2.948462e-01	7.568544e-06
8.544921875000003e-04	2.910156e-01	2.909456e-01	6.999270e-06
8.564453125000003e-04	2.871094e-01	2.870446e-01	6.472158e-06
8.583984375000003e-04	2.832031e-01	2.831433e-01	5.984096e-06
8.603515625000003e-04	2.792969e-01	2.792416e-01	5.532196e-06
8.623046875000003e-04	2.753906e-01	2.753395e-01	5.113784e-06
8.642578125000003e-04	2.714844e-01	2.714371e-01	4.726384e-06
8.662109375000003e-04	2.675781e-01	2.675344e-01	4.367702e-06
8.681640625000003e-04	2.636719e-01	2.636315e-01	4.035614e-06
8.701171875000003e-04	2.597656e-01	2.597283e-01	3.728152e-06
8.720703125000003e-04	2.558594e-01	2.558249e-01	3.443493e-06
8.740234375000003e-04	2.519531e-01	2.519213e-01	3.179949e-06
8.759765625000003e-04	2.480469e-01	2.480175e-01	2.935956e-06
8.779296875000003e-04	2.441406e-01	2.441135e-01	2.710068e-06
8.798828125000003e-04	2.402344e-01	2.402094e-01	2.500943e-06
8.818359375000003e-04	2.363281e-01	2.363051e-01	2.307340e-06
8.837890625000004e-04	2.324219e-01	2.324006e-01	2.128109e-06
8.857421875000004e-04	2.285156e-01	2.284960e-01	1.962185e-06
8.876953125000004e-04	2.246094e-01	2.245913e-01	1.808582e-06
8.896484375000004e-04	2.207031e-01	2.206865e-01	1.666387e-06
8.916015625000004e-04	2.167969e-01	2.167815e-01	1.534755e-06
8.955078125000004e-04	2.089844e-01	2.089714e-01	1.300106e-06
8.994140625000004e-04	2.011719e-01	2.011609e-01	1.099041e-06
9.033203125000004e-04	1.933594e-01	1.933501e-01	9.267657e-07
9.072265625000004e-04	1.855469e-01	1.855391e-01	7.791686e-07
9.111328125000004e-04	1.777344e-01	1.777278e-01	6.527252e-07
9.150390625000004e-04	1.699219e-01	1.699164e-01	5.444139e-07
9.189453125000004e-04	1.621094e-01	1.621049e-01	4.516445e-07
9.228515625000004e-04	1.542969e-01	1.542931e-01	3.721962e-07
9.267578125000004e-04	1.464844e-01	1.464813e-01	3.041657e-07
9.306640625000004e-04	1.386719e-01	1.386694e-01	2.459210e-07
9.345703125000004e-04	1.308594e-01	1.308574e-01	1.960634e-07
9.384765625000004e-04	1.230469e-01	1.230453e-01	1.533939e-07
9.423828125000004e-04	1.152344e-01	1.152332e-01	1.168846e-07
9.482421875000004e-04	1.035156e-01	1.035149e-01	7.177891e-08
9.541015625000004e-04	9.179687e-02	9.179652e-02	3.611952e-08
9.599609375000004e-04	8.007812e-02	8.007805e-02	7.953099e-09
9.658203125000004e-04	6.835938e-02	6.835952e-02	-1.427043e-08
9.707031250000003e-04	5.859375e-02	5.859403e-02	-2.823734e-08
9.755859375000003e-04	4.882812e-02	4.882853e-02	-4.047972e-08
9.804687500000002e-04	3.906250e-02	3.906301e-02	-5.099757e-08
9.853515625000001e-04	2.929688e-02	2.929748e-02	-5.979090e-08
9.902343750000002e-04	1.953125e-02	1.953192e-02	-6.685969e-08
9.951171875000001e-04	9.765625e-03	9.766348e-03	-7.220396e-08
1.000000000000000e-03	-9.492407e-17	7.582371e-07	-7.582371e-08
1.000004350104775e-03	8.700210e-06	8.491452e-06	2.087708e-08
1.000013050314324e-03	2.610063e-05	2.534726e-05	7.533755e-08
1.004335467422395e-03	8.670934e-03	8.670115e-03	8.200217e-08
1.008657884530467e-03	1.731577e-02	1.731486e-02	9.059347e-08
1.012980301638538e-03	2.596060e-02	2.595959e-02	1.011115e-07
1.017302718746610e-03	3.460544e-02	3.460430e-02	1.135561e-07
1.021625135854681e-03	4.325027e-02	4.324899e-02	1.279275e-07
1.025947552962753e-03	5.189510e-02	5.189366e-02	1.442256e-07
1.030269970070824e-03	6.053994e-02	6.053831e-02	1.624503e-07
1.036129345070824e-03	7.225869e-02	7.225675e-02	1.942114e-07
1.041988720070824e-03	8.397744e-02	8.397510e-02	2.340713e-07
1.047848095070824e-03	9.569619e-02	9.569335e-02	2.841307e-07
1.053707470070824e-03	1.074149e-01	1.074115e-01	3.470374e-07
1.057613720070824e-03	1.152274e-01	1.152235e-01	3.977259e-07
1.061519970070824e-03	1.230399e-01	1.230354e-01	4.567821e-07
1.065426220070824e-03	1.308524e-01	1.308472e-01	5.255983e-07
1.069332470070824e-03	1.386649e-01	1.386589e-01	6.057982e-07
1.073238720070824e-03	1.464774e-01	1.464705e-01	6.992759e-07
1.077144970070824e-03	1.542899e-01	1.542819e-01	8.082407e-07
1.081051220070824e-03	1.621024e-01	1.620931e-01	9.352694e-07
1.084957470070824e-03	1.699149e-01	1.699041e-01	1.083367e-06
1.088863720070824e-03	1.777274e-01	1.777149e-01	1.256039e-06
1.092769970070824e-03	1.855399e-01	1.855254e-01	1.457374e-06
1.096676220070824e-03	1.933524e-01	1.933355e-01	1.692138e-06
1.100582470070824e-03	2.011649e-01	2.011453e-01	1.965890e-06
1.104488720070824e-03	2.089774e-01	2.089546e-01	2.285113e-06
1.108394970070824e-03	2.167899e-01	2.167634e-01	2.657364e-06
1.110348095070824e-03	2.206962e-01	2.206675e-01	2.866073e-06
1.112301220070824e-03	2.246024e-01	2.245715e-01	3.091455e-06
1.114254345070824e-03	2.285087e-01	2.284753e-01	3.334836e-06
1.116207470070824e-03	2.324149e-01	2.323790e-01	3.597657e-06
1.118160595070824e-03	2.363212e-01	2.362824e-01	3.881466e-06
1.120113720070824e-03	2.402274e-01	2.401856e-01	4.187943e-06
1.122066845070824e-03	2.441337e-01	2.440885e-01	4.518889e-06
1.124019970070824e-03	2.480399e-01	2.479912e-01	4.876263e-06
1.125973095070824e-03	2.519462e-01	2.518936e-01	5.262164e-06
1.127926220070824e-03	2.558524e-01	2.557957e-01	5.678875e-06
1.129879345070824e-03	2.597587e-01	2.596974e-01	6.128841e-06
1.131832470070824e-03	2.636649e-01	2.635988e-01	6.614719e-06
1.133785595070824e-03	2.675712e-01	2.674998e-01	7.139357e-06
1.135738720070824e-03	2.714774e-01	2.714004e-01	7.705851e-06
1.137691845070824e-03	2.753837e-01	2.753005e-01	8.317516e-06
1.139644970070824e-03	2.792899e-01	2.792002e-01	8.977955e-06
1.141598095070824e-03	2.831962e-01	2.830993e-01	9.691029e-06
1.143551220070824e-03	2.871024e-01	2.869978e-01	1.046093e-05
1.145504345070824e-03	2.910087e-01	2.908958e-01	1.129215e-05
1.147457470070824e-03	2.949149e-01	2.947930e-01	1.218955e-05
1.149410595070824e-03	2.988212e-01	2.986896e-01	1.315838e-05
1.151363720070824e-03	3.027274e-01	3.025854e-01	1.420429e-05
1.153316845070824e-03	3.066337e-01	3.064803e-01	1.533337e-05
1.155269970070824e-03	3.105399e-01	3.103744e-01	1.655218e-05
1.157223095070824e-03	3.144462e-01	3.142675e-01	1.786779e-05
1.159176220070824e-03	3.183524e-01	3.181596e-01	1.928784e-05
1.161129345070824e-03	3.222587e-01	3.220505e-01	2.082053e-05
1.163082470070824e-03	3.261649e-01	3.259402e-01	2.247470e-05
1.165035595070824e-03	3.300712e-01	3.298286e-01	2.425989e-05
1.166988720070824e-03	3.339774e-01	3.337156e-01	2.618635e-05
1.168941845070824e-03	3.378837e-01	3.376010e-01	2.826513e-05
1.170894970070824e-03	3.417899e-01	3.414848e-01	3.050810e-05
1.172848095070824e-03	3.456962e-01	3.453669e-01	3.292804e-05
1.174801220070824e-03	3.496024e-01	3.492471e-01	3.553870e-05
1.176754345070824e-03	3.535087e-01	3.531252e-01	3.835485e-05
1.178707470070824e-03	3.574149e-01	3.570010e-01	4.139238e-05
1.180660595070824e-03	3.613212e-01	3.608745e-01	4.466833e-05
1.182613720070824e-03	3.652274e-01	3.647454e-01	4.820102e-05
1.184566845070824e-03	3.691337e-01	3.686136e-01	5.201011e-05
1.186519970070824e-03	3.730399e-01	3.724788e-01	5.611667e-05
1.188473095070824e-03	3.769462e-01	3.763407e-01	6.054333e-05
